===============================================================================
Module : axi_tb_top
===============================================================================
SCORE  LINE   COND   TOGGLE FSM    BRANCH 
 87.50 100.00 --      75.00 --     --     

Source File(s) : 

/home/m.sohrabian/axi_lite_uvm_tb/sim/../tb/axi_tb_top.sv

Module self-instances :

SCORE  LINE   COND   TOGGLE FSM    BRANCH NAME       
 87.50 100.00 --      75.00 --     --     axi_tb_top 



-------------------------------------------------------------------------------
Line Coverage for Module : axi_tb_top

             Line No.   Total   Covered  Percent
TOTAL                        9        9   100.00
INITIAL            59        1        1   100.00
ALWAYS             60        2        2   100.00
INITIAL            65        4        4   100.00
INITIAL            72        2        2   100.00

58                         // Clock generation — toggles every 5ns = 100MHz
59         1/1              initial aclk=0;
60         2/2              always #5 aclk=~aclk;
61                      
62                      
63                              // Reset — hold low for 20ns then release
64                          initial begin
65         1/1                  aresetn = 0;
66         2/2                  #20;
67         1/1                  aresetn = 1;
68                          end
69                      
70                      
71                          initial begin
72         1/1                uvm_config_db #(virtual axi_if)::set(null, "*", "vif", vif);
73         1/1                run_test("axi_test");

-------------------------------------------------------------------------------
Toggle Coverage for Module : axi_tb_top
                Total Covered Percent 
Totals          2     1       50.00   
Total Bits      4     3       75.00   
Total Bits 0->1 2     2       100.00  
Total Bits 1->0 2     1       50.00   

                            
Signals          2 1 50.00  
Signal Bits      4 3 75.00  
Signal Bits 0->1 2 2 100.00 
Signal Bits 1->0 2 1 50.00  

Signal Details
        Toggle Toggle 1->0 Toggle 0->1 
aclk    Yes    Yes         Yes         
aresetn No     No          Yes         


-------------------------------------------------------------------------------
===============================================================================
Module Instance : axi_tb_top
===============================================================================

Instance :

SCORE  LINE   COND   TOGGLE FSM    BRANCH 
 87.50 100.00 --      75.00 --     --     


Instance's subtree :

SCORE  LINE   COND   TOGGLE FSM    BRANCH 
 94.13 100.00  79.31  97.19 --     100.00 


Module : 

SCORE  LINE   COND   TOGGLE FSM    BRANCH NAME       
 87.50 100.00 --      75.00 --     --     axi_tb_top 


Parent : 

none
----------------


Subtrees :

SCORE  LINE   COND   TOGGLE FSM    BRANCH NAME 
 94.17 100.00  79.31  97.38 --     100.00 dut  
 97.28 --     --      97.28 --     --     vif  



-------------------------------------------------------------------------------
Since this is the module's only instance, the coverage report is the same as for the module.
===============================================================================
Module : axi_lite_slave
===============================================================================
SCORE  LINE   COND   TOGGLE FSM    BRANCH 
 94.20 100.00  79.31  97.47 --     100.00 

Source File(s) : 

/home/m.sohrabian/axi_lite_uvm_tb/sim/../rtl/axi_lite_slave.sv

Module self-instances :

SCORE  LINE   COND   TOGGLE FSM    BRANCH NAME           
 94.20 100.00  79.31  97.47 --     100.00 axi_tb_top.dut 



-------------------------------------------------------------------------------
Line Coverage for Module : axi_lite_slave

             Line No.   Total   Covered  Percent
TOTAL                       47       47   100.00
ALWAYS             83       11       11   100.00
ALWAYS            107       20       20   100.00
ALWAYS            146       16       16   100.00

82                          always_ff @(posedge aclk) begin
83         1/1                  if (!aresetn) begin
84         1/1                      awready     <= 1'b0;
85         1/1                      aw_active   <= 1'b0;
86         1/1                      aw_addr_lat <= '0;
87                              end else begin
88         1/1                      awready <= 1'b0;
89                      
90                                  // Accept new address only when slave is not busy
91         1/1                      if (awvalid && !aw_active) begin
92         1/1                          awready     <= 1'b1;
93         1/1                          aw_active   <= 1'b1;
94         1/1                          aw_addr_lat <= awaddr;
95                                  end
                        MISSING_ELSE
96                      
97                                  // Clear aw_active once write response is acknowledged by master
98         1/1                      if (bvalid && bready)
99         1/1                          aw_active <= 1'b0;
                        MISSING_ELSE
100                             end
101                         end
102                     
103                         // -------------------------------------------------------------------------
104                         // Write Data Channel + Write Response Channel
105                         // -------------------------------------------------------------------------
106                         always_ff @(posedge aclk) begin
107        1/1                  if (!aresetn) begin
108        1/1                      wready      <= 1'b0;
109        1/1                      bvalid      <= 1'b0;
110        1/1                      bresp       <= 2'b00;
111        1/1                      reg_file[0] <= '0;
112        1/1                      reg_file[1] <= '0;
113        1/1                      reg_file[2] <= '0;
114        1/1                      reg_file[3] <= '0;
115                             end else begin
116        1/1                      wready <= 1'b0;
117                     
118                                 // Accept write data once address has been latched
119        1/1                      if (wvalid && aw_active && !bvalid) begin
120        1/1                          wready <= 1'b1;
121                     
122        1/1                          if (write_addr_valid) begin
123                                         // Apply write strobe — write only enabled bytes
124        1/1                              for (int b = 0; b < DATA_WIDTH/8; b++) begin
125        1/1                                  if (wstrb[b])
126        1/1                                      reg_file[aw_addr_lat[3:2]][b*8 +: 8] <= wdata[b*8 +: 8];
                        MISSING_ELSE
127                                         end
128        1/1                              bresp <= 2'b00;     // OKAY
129                                     end else begin
130        1/1                              bresp <= 2'b10;     // SLVERR — invalid address
131                                     end
132                     
133        1/1                          bvalid <= 1'b1;
134                                 end
                        MISSING_ELSE
135                     
136                                 // Clear response once master acknowledges
137        1/1                      if (bvalid && bready)
138        1/1                          bvalid <= 1'b0;
                        MISSING_ELSE
139                             end
140                         end
141                     
142                         // -------------------------------------------------------------------------
143                         // Read Address Channel + Read Data Channel
144                         // -------------------------------------------------------------------------
145                         always_ff @(posedge aclk) begin
146        1/1                  if (!aresetn) begin
147        1/1                      arready <= 1'b0;
148        1/1                      rvalid  <= 1'b0;
149        1/1                      rdata   <= '0;
150        1/1                      rresp   <= 2'b00;
151                             end else begin
152        1/1                      arready <= 1'b0;
153                     
154        1/1                      if (arvalid && !rvalid) begin
155        1/1                          arready <= 1'b1;
156                     
157        1/1                          if (read_addr_valid) begin
158        1/1                              rdata <= reg_file[araddr[3:2]];
159        1/1                              rresp <= 2'b00;     // OKAY
160                                     end else begin
161        1/1                              rdata <= '0;
162        1/1                              rresp <= 2'b10;     // SLVERR
163                                     end
164                     
165        1/1                          rvalid <= 1'b1;
166                                 end
                        MISSING_ELSE
167                     
168                                 // Clear read response once master acknowledges
169        1/1                      if (rvalid && rready)
170        1/1                          rvalid <= 1'b0;
                        MISSING_ELSE

-------------------------------------------------------------------------------
Cond Coverage for Module : axi_lite_slave

               Total   Covered  Percent
Conditions         29       23    79.31
Logical            29       23    79.31
Non-Logical         0        0
Event               0        0

 LINE       91
 EXPRESSION (awvalid && ((!aw_active)))
             ---1---    -------2------

-1- -2- Status
 0   1  Covered
 1   0  Covered
 1   1  Covered

 LINE       98
 EXPRESSION (bvalid && bready)
             ---1--    ---2--

-1- -2- Status
 0   1  Not Covered
 1   0  Covered
 1   1  Covered

 LINE       119
 EXPRESSION (wvalid && aw_active && ((!bvalid)))
             ---1--    ----2----    -----3-----

-1- -2- -3- Status
 0   1   1  Covered
 1   0   1  Not Covered
 1   1   0  Covered
 1   1   1  Covered

 LINE       137
 EXPRESSION (bvalid && bready)
             ---1--    ---2--

-1- -2- Status
 0   1  Not Covered
 1   0  Covered
 1   1  Covered

 LINE       154
 EXPRESSION (arvalid && ((!rvalid)))
             ---1---    -----2-----

-1- -2- Status
 0   1  Covered
 1   0  Covered
 1   1  Covered

 LINE       169
 EXPRESSION (rvalid && rready)
             ---1--    ---2--

-1- -2- Status
 0   1  Not Covered
 1   0  Covered
 1   1  Covered

 LINE       73
 EXPRESSION ((aw_addr_lat[1:0] == 2'b0) && (aw_addr_lat[(ADDR_WIDTH - 1):2] < 4))
             -------------1------------    ------------------2------------------

-1- -2- Status
 0   1  Covered
 1   0  Not Covered
 1   1  Covered

 LINE       73
 SUB-EXPRESSION (aw_addr_lat[1:0] == 2'b0)
                -------------1------------

-1- Status
 0  Covered
 1  Covered

 LINE       75
 EXPRESSION ((araddr[1:0] == 2'b0) && (araddr[(ADDR_WIDTH - 1):2] < 4))
             ----------1----------    ----------------2---------------

-1- -2- Status
 0   1  Covered
 1   0  Not Covered
 1   1  Covered

 LINE       75
 SUB-EXPRESSION (araddr[1:0] == 2'b0)
                ----------1----------

-1- Status
 0  Covered
 1  Covered

-------------------------------------------------------------------------------
Toggle Coverage for Module : axi_lite_slave
                Total Covered Percent 
Totals          23    20      86.96   
Total Bits      198   193     97.47   
Total Bits 0->1 99    97      97.98   
Total Bits 1->0 99    96      96.97   

                              
Ports          19  16  84.21  
Port Bits      184 179 97.28  
Port Bits 0->1 92  90  97.83  
Port Bits 1->0 92  89  96.74  

                              
Signals          4  4  100.00 
Signal Bits      14 14 100.00 
Signal Bits 0->1 7  7  100.00 
Signal Bits 1->0 7  7  100.00 

Port Details
            Toggle Toggle 1->0 Toggle 0->1 Direction 
aclk        Yes    Yes         Yes         INPUT     
aresetn     No     No          Yes         INPUT     
awvalid     Yes    Yes         Yes         INPUT     
awready     Yes    Yes         Yes         OUTPUT    
awaddr[3:0] Yes    Yes         Yes         INPUT     
wvalid      Yes    Yes         Yes         INPUT     
wready      Yes    Yes         Yes         OUTPUT    
wdata[31:0] Yes    Yes         Yes         INPUT     
wstrb[3:0]  Yes    Yes         Yes         INPUT     
bvalid      Yes    Yes         Yes         OUTPUT    
bready      Yes    Yes         Yes         INPUT     
bresp[0]    No     No          No          OUTPUT    
bresp[1]    Yes    Yes         Yes         OUTPUT    
arvalid     Yes    Yes         Yes         INPUT     
arready     Yes    Yes         Yes         OUTPUT    
araddr[3:0] Yes    Yes         Yes         INPUT     
rvalid      Yes    Yes         Yes         OUTPUT    
rready      Yes    Yes         Yes         INPUT     
rdata[31:0] Yes    Yes         Yes         OUTPUT    
rresp[0]    No     No          No          OUTPUT    
rresp[1]    Yes    Yes         Yes         OUTPUT    

Signal Details
                 Toggle Toggle 1->0 Toggle 0->1 
aw_active        Yes    Yes         Yes         
aw_addr_lat[3:0] Yes    Yes         Yes         
write_addr_valid Yes    Yes         Yes         
read_addr_valid  Yes    Yes         Yes         


-------------------------------------------------------------------------------
Branch Coverage for Module : axi_lite_slave
         Line No. Total Covered Percent 
Branches          17    17      100.00  
IF       83       5     5       100.00  
IF       107      6     6       100.00  
IF       146      6     6       100.00  


83                 if (!aresetn) begin
                   -1-  
84                     awready     <= 1'b0;
                       ==>
85                     aw_active   <= 1'b0;
86                     aw_addr_lat <= '0;
87                 end else begin
88                     awready <= 1'b0;
89         
90                     // Accept new address only when slave is not busy
91                     if (awvalid && !aw_active) begin
                       -2-  
92                         awready     <= 1'b1;
                           ==>
93                         aw_active   <= 1'b1;
94                         aw_addr_lat <= awaddr;
95                     end
                       MISSING_ELSE
                       ==>
96         
97                     // Clear aw_active once write response is acknowledged by master
98                     if (bvalid && bready)
                       -3-  
99                         aw_active <= 1'b0;
                           ==>
                           MISSING_ELSE
                           ==>

Branches:

-1- -2- -3- Status  
1   -   -   Covered 
0   1   -   Covered 
0   0   -   Covered 
0   -   1   Covered 
0   -   0   Covered 


107                if (!aresetn) begin
                   -1-  
108                    wready      <= 1'b0;
                       ==>
109                    bvalid      <= 1'b0;
110                    bresp       <= 2'b00;
111                    reg_file[0] <= '0;
112                    reg_file[1] <= '0;
113                    reg_file[2] <= '0;
114                    reg_file[3] <= '0;
115                end else begin
116                    wready <= 1'b0;
117        
118                    // Accept write data once address has been latched
119                    if (wvalid && aw_active && !bvalid) begin
                       -2-  
120                        wready <= 1'b1;
121        
122                        if (write_addr_valid) begin
                           -3-  
123                            // Apply write strobe — write only enabled bytes
124                            for (int b = 0; b < DATA_WIDTH/8; b++) begin
                               ==>
125                                if (wstrb[b])
126                                    reg_file[aw_addr_lat[3:2]][b*8 +: 8] <= wdata[b*8 +: 8];
127                            end
128                            bresp <= 2'b00;     // OKAY
129                        end else begin
130                            bresp <= 2'b10;     // SLVERR — invalid address
                               ==>
131                        end
132        
133                        bvalid <= 1'b1;
134                    end
                       MISSING_ELSE
                       ==>
135        
136                    // Clear response once master acknowledges
137                    if (bvalid && bready)
                       -4-  
138                        bvalid <= 1'b0;
                           ==>
                           MISSING_ELSE
                           ==>

Branches:

-1- -2- -3- -4- Status  
1   -   -   -   Covered 
0   1   1   -   Covered 
0   1   0   -   Covered 
0   0   -   -   Covered 
0   -   -   1   Covered 
0   -   -   0   Covered 


146                if (!aresetn) begin
                   -1-  
147                    arready <= 1'b0;
                       ==>
148                    rvalid  <= 1'b0;
149                    rdata   <= '0;
150                    rresp   <= 2'b00;
151                end else begin
152                    arready <= 1'b0;
153        
154                    if (arvalid && !rvalid) begin
                       -2-  
155                        arready <= 1'b1;
156        
157                        if (read_addr_valid) begin
                           -3-  
158                            rdata <= reg_file[araddr[3:2]];
                               ==>
159                            rresp <= 2'b00;     // OKAY
160                        end else begin
161                            rdata <= '0;
                               ==>
162                            rresp <= 2'b10;     // SLVERR
163                        end
164        
165                        rvalid <= 1'b1;
166                    end
                       MISSING_ELSE
                       ==>
167        
168                    // Clear read response once master acknowledges
169                    if (rvalid && rready)
                       -4-  
170                        rvalid <= 1'b0;
                           ==>
                           MISSING_ELSE
                           ==>

Branches:

-1- -2- -3- -4- Status  
1   -   -   -   Covered 
0   1   1   -   Covered 
0   1   0   -   Covered 
0   0   -   -   Covered 
0   -   -   1   Covered 
0   -   -   0   Covered 


-------------------------------------------------------------------------------
===============================================================================
Module Instance : axi_tb_top.dut
===============================================================================

Instance :

SCORE  LINE   COND   TOGGLE FSM    BRANCH 
 94.20 100.00  79.31  97.47 --     100.00 


Instance's subtree :

SCORE  LINE   COND   TOGGLE FSM    BRANCH 
 94.17 100.00  79.31  97.38 --     100.00 


Module : 

SCORE  LINE   COND   TOGGLE FSM    BRANCH NAME           
 94.20 100.00  79.31  97.47 --     100.00 axi_lite_slave 


Parent : 

SCORE  LINE   COND   TOGGLE FSM    BRANCH NAME       
 87.50 100.00 --      75.00 --     --     axi_tb_top 


Subtrees :

SCORE  LINE   COND   TOGGLE FSM    BRANCH NAME     
 97.28 --     --      97.28 --     --     sva_inst 



-------------------------------------------------------------------------------
Since this is the module's only instance, the coverage report is the same as for the module.
===============================================================================
Module : axi_if
===============================================================================
SCORE  LINE   COND   TOGGLE FSM    BRANCH 
 97.28 --     --      97.28 --     --     

Source File(s) : 

/home/m.sohrabian/axi_lite_uvm_tb/sim/../tb/axi_if.sv

Module self-instances :

SCORE  LINE   COND   TOGGLE FSM    BRANCH NAME           
 97.28 --     --      97.28 --     --     axi_tb_top.vif 



-------------------------------------------------------------------------------
Toggle Coverage for Module : axi_if
                Total Covered Percent 
Totals          19    16      84.21   
Total Bits      184   179     97.28   
Total Bits 0->1 92    90      97.83   
Total Bits 1->0 92    89      96.74   

                                
Signals          19  16  84.21  
Signal Bits      184 179 97.28  
Signal Bits 0->1 92  90  97.83  
Signal Bits 1->0 92  89  96.74  

Signal Details
            Toggle Toggle 1->0 Toggle 0->1 
clk         Yes    Yes         Yes         
rst_n       No     No          Yes         
awaddr[3:0] Yes    Yes         Yes         
awvalid     Yes    Yes         Yes         
awready     Yes    Yes         Yes         
wdata[31:0] Yes    Yes         Yes         
wstrb[3:0]  Yes    Yes         Yes         
wvalid      Yes    Yes         Yes         
wready      Yes    Yes         Yes         
bresp[0]    No     No          No          
bresp[1]    Yes    Yes         Yes         
bvalid      Yes    Yes         Yes         
bready      Yes    Yes         Yes         
araddr[3:0] Yes    Yes         Yes         
arvalid     Yes    Yes         Yes         
arready     Yes    Yes         Yes         
rdata[31:0] Yes    Yes         Yes         
rresp[0]    No     No          No          
rresp[1]    Yes    Yes         Yes         
rvalid      Yes    Yes         Yes         
rready      Yes    Yes         Yes         


-------------------------------------------------------------------------------
===============================================================================
Module Instance : axi_tb_top.vif
===============================================================================

Instance :

SCORE  LINE   COND   TOGGLE FSM    BRANCH 
 97.28 --     --      97.28 --     --     


Instance's subtree :

SCORE  LINE   COND   TOGGLE FSM    BRANCH 
 97.28 --     --      97.28 --     --     


Module : 

SCORE  LINE   COND   TOGGLE FSM    BRANCH NAME   
 97.28 --     --      97.28 --     --     axi_if 


Parent : 

SCORE  LINE   COND   TOGGLE FSM    BRANCH NAME       
 87.50 100.00 --      75.00 --     --     axi_tb_top 


Subtrees :


no children
----------------


-------------------------------------------------------------------------------
Since this is the module's only instance, the coverage report is the same as for the module.
===============================================================================
Module : axi_sva
===============================================================================
SCORE  LINE   COND   TOGGLE FSM    BRANCH 
 97.28 --     --      97.28 --     --     

Source File(s) : 

/home/m.sohrabian/axi_lite_uvm_tb/sim/../tb/axi_sva.sv

Module self-instances :

SCORE  LINE   COND   TOGGLE FSM    BRANCH NAME                    
 97.28 --     --      97.28 --     --     axi_tb_top.dut.sva_inst 



-------------------------------------------------------------------------------
Toggle Coverage for Module : axi_sva
                Total Covered Percent 
Totals          19    16      84.21   
Total Bits      184   179     97.28   
Total Bits 0->1 92    90      97.83   
Total Bits 1->0 92    89      96.74   

                              
Ports          19  16  84.21  
Port Bits      184 179 97.28  
Port Bits 0->1 92  90  97.83  
Port Bits 1->0 92  89  96.74  

Port Details
            Toggle Toggle 1->0 Toggle 0->1 Direction 
aclk        Yes    Yes         Yes         INPUT     
aresetn     No     No          Yes         INPUT     
awvalid     Yes    Yes         Yes         INPUT     
awready     Yes    Yes         Yes         INPUT     
awaddr[3:0] Yes    Yes         Yes         INPUT     
wvalid      Yes    Yes         Yes         INPUT     
wready      Yes    Yes         Yes         INPUT     
wdata[31:0] Yes    Yes         Yes         INPUT     
wstrb[3:0]  Yes    Yes         Yes         INPUT     
bvalid      Yes    Yes         Yes         INPUT     
bready      Yes    Yes         Yes         INPUT     
bresp[0]    No     No          No          INPUT     
bresp[1]    Yes    Yes         Yes         INPUT     
arvalid     Yes    Yes         Yes         INPUT     
arready     Yes    Yes         Yes         INPUT     
araddr[3:0] Yes    Yes         Yes         INPUT     
rvalid      Yes    Yes         Yes         INPUT     
rready      Yes    Yes         Yes         INPUT     
rdata[31:0] Yes    Yes         Yes         INPUT     
rresp[0]    No     No          No          INPUT     
rresp[1]    Yes    Yes         Yes         INPUT     


-------------------------------------------------------------------------------
===============================================================================
Module Instance : axi_tb_top.dut.sva_inst
===============================================================================

Instance :

SCORE  LINE   COND   TOGGLE FSM    BRANCH 
 97.28 --     --      97.28 --     --     


Instance's subtree :

SCORE  LINE   COND   TOGGLE FSM    BRANCH 
 97.28 --     --      97.28 --     --     


Module : 

SCORE  LINE   COND   TOGGLE FSM    BRANCH NAME    
 97.28 --     --      97.28 --     --     axi_sva 


Parent : 

SCORE  LINE   COND   TOGGLE FSM    BRANCH NAME 
 94.20 100.00  79.31  97.47 --     100.00 dut  


Subtrees :


no children
----------------


-------------------------------------------------------------------------------
Since this is the module's only instance, the coverage report is the same as for the module.
